
T06A4 000:253 SEGGER J-Link V4.90 Log File (0001ms, 0019ms total)
T06A4 000:253 DLL Compiled: Jul 28 2014 10:35:20 (0001ms, 0019ms total)
T06A4 000:253 Logging started @ 2019-08-09 18:47 (0001ms, 0019ms total)
T06A4 000:254 JLINK_SetWarnOutHandler(...) (0000ms, 0019ms total)
T06A4 000:254 JLINK_OpenEx(...)
Firmware: J-Link ARM V8 compiled Nov 28 2014 13:44:46
Hardware: V8.00
S/N: 286370559
Feature(s): RDI,FlashDL,FlashBP,JFlash  returns O.K. (0016ms, 0035ms total)
T06A4 000:270 JLINK_SetErrorOutHandler(...) (0000ms, 0035ms total)
T06A4 000:270 JLINK_ExecCommand("ProjectFile = "C:\Users\hasee\Desktop\swm320ÏÔÊ¾\7M15\SDcard2SPIflash\xunhuanxieru\FATFS\USER\JLinkSettings.ini"", ...)Device "CORTEX-M4" selected (0 KB flash, 0 KB RAM).  returns 0x00 (0007ms, 0042ms total)
T06A4 000:289 JLINK_ExecCommand("Device = SWM320xE", ...)Device "CORTEX-M4" selected (0 KB flash, 0 KB RAM).  returns 0x00 (0019ms, 0061ms total)
T06A4 000:308 JLINK_ExecCommand("DisableConnectionTimeout", ...)  returns 0x01 (0000ms, 0061ms total)
T06A4 000:308 JLINK_GetHardwareVersion()  returns 0x13880 (0000ms, 0061ms total)
T06A4 000:308 JLINK_GetDLLVersion()  returns 49000 (0000ms, 0061ms total)
T06A4 000:308 JLINK_GetFirmwareString(...) (0000ms, 0061ms total)
T06A4 000:335 JLINK_GetDLLVersion()  returns 49000 (0000ms, 0061ms total)
T06A4 000:335 JLINK_GetCompileDateTime() (0001ms, 0062ms total)
T06A4 000:345 JLINK_GetFirmwareString(...) (0000ms, 0062ms total)
T06A4 000:353 JLINK_GetHardwareVersion()  returns 0x13880 (0000ms, 0062ms total)
T06A4 000:383 JLINK_TIF_Select(JLINKARM_TIF_SWD)  returns 0x00 (0001ms, 0063ms total)
T06A4 000:384 JLINK_SetSpeed(1000) (0000ms, 0063ms total)
T06A4 000:384 JLINK_GetId() >0x108 TIF>Found SWD-DP with ID 0x2BA01477 >0x0D TIF> >0x21 TIF> >0x0D TIF> >0x28 TIF> >0x0D TIF> >0x28 TIF> >0x0D TIF> >0x21 TIF> >0x0D TIF> >0x28 TIF> >0x0D TIF> >0x21 TIF> >0x0D TIF> >0x21 TIF> >0x0D TIF> >0x21 TIF> >0x0D TIF> >0x21 TIF> >0x0D TIF> >0x28 TIF> >0x0D TIF> >0x28 TIF> >0x0D TIF> >0x21 TIF> >0x0D TIF> >0x28 TIF> >0x0D TIF> >0x28 TIF> >0x0D TIF> >0x28 TIF> >0x0D TIF> >0x21 TIF> >0x0D TIF> >0x21 TIF> >0x0D TIF> >0x28 TIF> >0x0D TIF> >0x21 TIF> >0x0D TIF>
 >0x21 TIF>Found Cortex-M4 r0p1, Little endian. -- CPU_WriteMem(4 bytes @ 0xE0002000) -- CPU_ReadMem(4 bytes @ 0xE000EDF0) -- CPU_WriteMem(4 bytes @ 0xE000EDF0) -- CPU_ReadMem(4 bytes @ 0xE0002000)FPUnit: 6 code (BP) slots and 2 literal slots -- CPU_ReadMem(4 bytes @ 0xE000EDFC) -- CPU_WriteMem(4 bytes @ 0xE000EDFC) -- CPU_ReadMem(4 bytes @ 0xE0001000) -- CPU_WriteMem(4 bytes @ 0xE0001000) -- CPU_ReadMem(4 bytes @ 0xE00FF010)TPIU fitted. -- CPU_ReadMem(4 bytes @ 0xE00FF014)
 -- CPU_ReadMem(4 bytes @ 0xE00FF018) >0x0D TIF> >0x21 TIF>  returns 0x2BA01477 (0046ms, 0109ms total)
T06A4 000:430 JLINK_GetDLLVersion()  returns 49000 (0000ms, 0109ms total)
T06A4 000:430 JLINK_CORE_GetFound()  returns 0xE0000FF (0000ms, 0109ms total)
T06A4 000:436 JLINK_ReadMem (0xE00FF000, 0x0020 Bytes, ...) -- CPU is running -- CPU_ReadMem(32 bytes @ 0xE00FF000) - Data: 03 F0 F0 FF 03 20 F0 FF 03 30 F0 FF 03 10 F0 FF ...  returns 0x00 (0001ms, 0110ms total)
T06A4 000:437 JLINK_ReadMem (0xE000EFF0, 0x0010 Bytes, ...) -- CPU is running -- CPU_ReadMem(16 bytes @ 0xE000EFF0) - Data: 0D 00 00 00 E0 00 00 00 05 00 00 00 B1 00 00 00  returns 0x00 (0001ms, 0111ms total)
T06A4 000:438 JLINK_ReadMem (0xE000EFD0, 0x0020 Bytes, ...) -- CPU is running -- CPU_ReadMem(32 bytes @ 0xE000EFD0) - Data: 04 00 00 00 00 00 00 00 00 00 00 00 00 00 00 00 ...  returns 0x00 (0001ms, 0112ms total)
T06A4 000:439 JLINK_ReadMem (0xE0001FF0, 0x0010 Bytes, ...) -- CPU is running -- CPU_ReadMem(16 bytes @ 0xE0001FF0) - Data: 0D 00 00 00 E0 00 00 00 05 00 00 00 B1 00 00 00  returns 0x00 (0001ms, 0113ms total)
T06A4 000:440 JLINK_ReadMem (0xE0001FD0, 0x0020 Bytes, ...) -- CPU is running -- CPU_ReadMem(32 bytes @ 0xE0001FD0) - Data: 04 00 00 00 00 00 00 00 00 00 00 00 00 00 00 00 ...  returns 0x00 (0001ms, 0114ms total)
T06A4 000:441 JLINK_ReadMem (0xE0002FF0, 0x0010 Bytes, ...) -- CPU is running -- CPU_ReadMem(16 bytes @ 0xE0002FF0) - Data: 0D 00 00 00 E0 00 00 00 05 00 00 00 B1 00 00 00  returns 0x00 (0001ms, 0115ms total)
T06A4 000:442 JLINK_ReadMem (0xE0002FD0, 0x0020 Bytes, ...) -- CPU is running -- CPU_ReadMem(32 bytes @ 0xE0002FD0) - Data: 04 00 00 00 00 00 00 00 00 00 00 00 00 00 00 00 ...  returns 0x00 (0001ms, 0116ms total)
T06A4 000:443 JLINK_ReadMem (0xE0000FF0, 0x0010 Bytes, ...) -- CPU is running -- CPU_ReadMem(16 bytes @ 0xE0000FF0) - Data: 0D 00 00 00 E0 00 00 00 05 00 00 00 B1 00 00 00  returns 0x00 (0000ms, 0116ms total)
T06A4 000:443 JLINK_ReadMem (0xE0000FD0, 0x0020 Bytes, ...) -- CPU is running -- CPU_ReadMem(32 bytes @ 0xE0000FD0) - Data: 04 00 00 00 00 00 00 00 00 00 00 00 00 00 00 00 ...  returns 0x00 (0001ms, 0117ms total)
T06A4 000:444 JLINK_ReadMem (0xE0040FF0, 0x0010 Bytes, ...) -- CPU is running -- CPU_ReadMem(16 bytes @ 0xE0040FF0) - Data: 0D 00 00 00 90 00 00 00 05 00 00 00 B1 00 00 00  returns 0x00 (0001ms, 0118ms total)
T06A4 000:445 JLINK_ReadMem (0xE0040FD0, 0x0020 Bytes, ...) -- CPU is running -- CPU_ReadMem(32 bytes @ 0xE0040FD0) - Data: 04 00 00 00 00 00 00 00 00 00 00 00 00 00 00 00 ...  returns 0x00 (0001ms, 0119ms total)
T06A4 000:446 JLINK_ReadMemU32(0xE000EF40, 0x0001 Items, ...) -- CPU is running -- CPU_ReadMem(4 bytes @ 0xE000EF40) - Data: 00 00 00 00  returns 0x01 (0001ms, 0120ms total)
T06A4 000:447 JLINK_ReadMemU32(0xE000ED00, 0x0001 Items, ...) -- CPU is running -- CPU_ReadMem(4 bytes @ 0xE000ED00) - Data: 41 C2 0F 41  returns 0x01 (0001ms, 0121ms total)
T06A4 000:448 JLINK_SetResetType(JLINKARM_RESET_TYPE_NORMAL)  returns JLINKARM_RESET_TYPE_NORMAL (0000ms, 0121ms total)
T06A4 000:448 JLINK_Reset() -- CPU is running -- CPU_WriteMem(4 bytes @ 0xE000EDF0) -- CPU is running -- CPU_WriteMem(4 bytes @ 0xE000EDFC) >0x35 TIF> -- CPU is running -- CPU_WriteMem(4 bytes @ 0xE000ED0C) -- CPU is running -- CPU_ReadMem(4 bytes @ 0xE000EDF0) -- CPU is running -- CPU_ReadMem(4 bytes @ 0xE000EDF0) -- CPU is running -- CPU_WriteMem(4 bytes @ 0xE000EDF0) -- CPU is running -- CPU_WriteMem(4 bytes @ 0xE000EDFC) -- CPU is running -- CPU_ReadMem(4 bytes @ 0xE000EDF0)
 -- CPU_WriteMem(4 bytes @ 0xE0002000) -- CPU_ReadMem(4 bytes @ 0xE000EDFC) -- CPU_ReadMem(4 bytes @ 0xE0001000) (0022ms, 0143ms total)
T06A4 000:470 JLINK_Halt()  returns 0x00 (0000ms, 0143ms total)
T06A4 000:470 JLINK_IsHalted()  returns TRUE (0000ms, 0143ms total)
T06A4 000:470 JLINK_ReadMemU32(0xE000EDF0, 0x0001 Items, ...) -- CPU_ReadMem(4 bytes @ 0xE000EDF0) - Data: 03 00 03 00  returns 0x01 (0000ms, 0143ms total)
T06A4 000:470 JLINK_WriteU32(0xE000EDF0, 0xA05F0003) -- CPU_WriteMem(4 bytes @ 0xE000EDF0)  returns 0x00 (0001ms, 0144ms total)
T06A4 000:471 JLINK_WriteU32(0xE000EDFC, 0x01000000) -- CPU_WriteMem(4 bytes @ 0xE000EDFC)  returns 0x00 (0001ms, 0145ms total)
T06A4 000:501 JLINK_GetHWStatus(...)  returns 0x00 (0001ms, 0146ms total)
T06A4 000:519 JLINK_GetNumBPUnits(Type = 0xFFFFFF00)  returns 0x06 (0000ms, 0146ms total)
T06A4 000:519 JLINK_GetNumBPUnits(Type = 0xF0)  returns 0x2000 (0000ms, 0146ms total)
T06A4 000:519 JLINK_GetNumWPUnits()  returns 0x04 (0000ms, 0146ms total)
T06A4 000:536 JLINK_GetSpeed()  returns 0x3E8 (0000ms, 0146ms total)
T06A4 000:548 JLINK_ReadMemU32(0xE000E004, 0x0001 Items, ...) -- CPU_ReadMem(4 bytes @ 0xE000E004) - Data: 02 00 00 00  returns 0x01 (0001ms, 0147ms total)
T06A4 000:549 JLINK_ReadMemU32(0xE000E004, 0x0001 Items, ...) -- CPU_ReadMem(4 bytes @ 0xE000E004) - Data: 02 00 00 00  returns 0x01 (0000ms, 0147ms total)
T06A4 000:549 JLINK_WriteMem(0xE0001000, 0x001C Bytes, ...) - Data: 01 00 00 00 00 00 00 00 00 00 00 00 00 00 00 00 ... -- CPU_WriteMem(28 bytes @ 0xE0001000)  returns 0x1C (0001ms, 0148ms total)
T06A4 000:550 JLINK_ReadMem (0xE0001000, 0x001C Bytes, ...) -- CPU_ReadMem(28 bytes @ 0xE0001000) - Data: 01 00 00 40 00 00 00 00 00 00 00 00 00 00 00 00 ...  returns 0x00 (0001ms, 0149ms total)
T06A4 000:552 JLINK_Halt()  returns 0x00 (0000ms, 0150ms total)
T06A4 000:552 JLINK_IsHalted()  returns TRUE (0000ms, 0150ms total)
T06A4 000:557 JLINK_WriteMem(0x20000000, 0x0108 Bytes, ...) - Data: 00 BE 0A E0 0D 78 2D 06 68 40 08 24 40 00 00 D3 ... -- CPU_WriteMem(264 bytes @ 0x20000000)  returns 0x108 (0005ms, 0155ms total)
T06A4 000:562 JLINK_WriteReg(R0, 0x00000000)  returns 0x00 (0000ms, 0155ms total)
T06A4 000:562 JLINK_WriteReg(R1, 0x01312D00)  returns 0x00 (0000ms, 0155ms total)
T06A4 000:562 JLINK_WriteReg(R2, 0x00000001)  returns 0x00 (0000ms, 0155ms total)
T06A4 000:562 JLINK_WriteReg(R3, 0x00000000)  returns 0x00 (0000ms, 0155ms total)
T06A4 000:562 JLINK_WriteReg(R4, 0x00000000)  returns 0x00 (0000ms, 0155ms total)
T06A4 000:562 JLINK_WriteReg(R5, 0x00000000)  returns 0x00 (0000ms, 0155ms total)
T06A4 000:562 JLINK_WriteReg(R6, 0x00000000)  returns 0x00 (0000ms, 0155ms total)
T06A4 000:562 JLINK_WriteReg(R7, 0x00000000)  returns 0x00 (0000ms, 0155ms total)
T06A4 000:562 JLINK_WriteReg(R8, 0x00000000)  returns 0x00 (0000ms, 0155ms total)
T06A4 000:562 JLINK_WriteReg(R9, 0x20000104)  returns 0x00 (0000ms, 0155ms total)
T06A4 000:562 JLINK_WriteReg(R10, 0x00000000)  returns 0x00 (0000ms, 0155ms total)
T06A4 000:562 JLINK_WriteReg(R11, 0x00000000)  returns 0x00 (0000ms, 0155ms total)
T06A4 000:562 JLINK_WriteReg(R12, 0x00000000)  returns 0x00 (0000ms, 0155ms total)
T06A4 000:562 JLINK_WriteReg(R13 (SP), 0x20004000)  returns 0x00 (0000ms, 0155ms total)
T06A4 000:562 JLINK_WriteReg(R14, 0x20000001)  returns 0x00 (0000ms, 0155ms total)
T06A4 000:562 JLINK_WriteReg(R15 (PC), 0x20000040)  returns 0x00 (0000ms, 0155ms total)
T06A4 000:562 JLINK_WriteReg(XPSR, 0x01000000)  returns 0x00 (0000ms, 0155ms total)
T06A4 000:562 JLINK_WriteReg(MSP, 0x20004000)  returns 0x00 (0000ms, 0155ms total)
T06A4 000:562 JLINK_WriteReg(PSP, 0x20004000)  returns 0x00 (0000ms, 0155ms total)
T06A4 000:562 JLINK_WriteReg(CFBP, 0x00000000)  returns 0x00 (0000ms, 0155ms total)
T06A4 000:562 JLINK_SetBPEx(Addr = 0x20000000, Type = 0xFFFFFFF2) -- CPU_ReadMem(4 bytes @ 0x20000000) -- CPU_WriteMem(4 bytes @ 0x20000000) -- CPU_ReadMem(4 bytes @ 0x20000000) -- CPU_WriteMem(4 bytes @ 0x20000000) -- CPU_ReadMem(2 bytes @ 0x20000000)  returns 0x00000001 (0003ms, 0158ms total)
T06A4 000:565 JLINK_Go() -- CPU_WriteMem(2 bytes @ 0x20000000) -- CPU_WriteMem(4 bytes @ 0xE0002008) -- CPU_WriteMem(4 bytes @ 0xE000200C) -- CPU_WriteMem(4 bytes @ 0xE0002010) -- CPU_WriteMem(4 bytes @ 0xE0002014) -- CPU_WriteMem(4 bytes @ 0xE0002018) -- CPU_WriteMem(4 bytes @ 0xE000201C) -- CPU_WriteMem(4 bytes @ 0xE0001004) (0008ms, 0166ms total)
T06A4 000:573 JLINK_IsHalted() -- CPU_ReadMem(2 bytes @ 0x20000000)  returns TRUE (0006ms, 0172ms total)
T06A4 000:579 JLINK_ReadReg(R15 (PC))  returns 0x20000000 (0000ms, 0166ms total)
T06A4 000:579 JLINK_ClrBPEx(BPHandle = 0x00000001)  returns 0x00 (0000ms, 0166ms total)
T06A4 000:579 JLINK_ReadReg(R0)  returns 0x00000000 (0000ms, 0166ms total)
T06A4 000:579 JLINK_WriteReg(R0, 0x00000000)  returns 0x00 (0000ms, 0166ms total)
T06A4 000:579 JLINK_WriteReg(R1, 0x01312D00)  returns 0x00 (0000ms, 0166ms total)
T06A4 000:580 JLINK_WriteReg(R2, 0x00000001)  returns 0x00 (0000ms, 0167ms total)
T06A4 000:580 JLINK_WriteReg(R3, 0x00000000)  returns 0x00 (0000ms, 0167ms total)
T06A4 000:580 JLINK_WriteReg(R4, 0x00000000)  returns 0x00 (0000ms, 0167ms total)
T06A4 000:580 JLINK_WriteReg(R5, 0x00000000)  returns 0x00 (0000ms, 0167ms total)
T06A4 000:580 JLINK_WriteReg(R6, 0x00000000)  returns 0x00 (0000ms, 0167ms total)
T06A4 000:580 JLINK_WriteReg(R7, 0x00000000)  returns 0x00 (0000ms, 0167ms total)
T06A4 000:580 JLINK_WriteReg(R8, 0x00000000)  returns 0x00 (0000ms, 0167ms total)
T06A4 000:580 JLINK_WriteReg(R9, 0x20000104)  returns 0x00 (0000ms, 0167ms total)
T06A4 000:580 JLINK_WriteReg(R10, 0x00000000)  returns 0x00 (0000ms, 0167ms total)
T06A4 000:580 JLINK_WriteReg(R11, 0x00000000)  returns 0x00 (0000ms, 0167ms total)
T06A4 000:580 JLINK_WriteReg(R12, 0x00000000)  returns 0x00 (0000ms, 0167ms total)
T06A4 000:580 JLINK_WriteReg(R13 (SP), 0x20004000)  returns 0x00 (0000ms, 0167ms total)
T06A4 000:580 JLINK_WriteReg(R14, 0x20000001)  returns 0x00 (0000ms, 0167ms total)
T06A4 000:580 JLINK_WriteReg(R15 (PC), 0x20000048)  returns 0x00 (0000ms, 0167ms total)
T06A4 000:580 JLINK_WriteReg(XPSR, 0x01000000)  returns 0x00 (0000ms, 0167ms total)
T06A4 000:580 JLINK_WriteReg(MSP, 0x20004000)  returns 0x00 (0000ms, 0167ms total)
T06A4 000:580 JLINK_WriteReg(PSP, 0x20004000)  returns 0x00 (0000ms, 0167ms total)
T06A4 000:580 JLINK_WriteReg(CFBP, 0x00000000)  returns 0x00 (0000ms, 0167ms total)
T06A4 000:580 JLINK_SetBPEx(Addr = 0x20000000, Type = 0xFFFFFFF2)  returns 0x00000002 (0000ms, 0167ms total)
T06A4 000:580 JLINK_Go() (0002ms, 0169ms total)
T06A4 000:582 JLINK_IsHalted()  returns FALSE (0001ms, 0170ms total)
T06A4 000:739 JLINK_IsHalted() -- CPU_ReadMem(2 bytes @ 0x20000000)  returns TRUE (0005ms, 0174ms total)
T06A4 000:744 JLINK_ReadReg(R15 (PC))  returns 0x20000000 (0000ms, 0169ms total)
T06A4 000:744 JLINK_ClrBPEx(BPHandle = 0x00000002)  returns 0x00 (0000ms, 0169ms total)
T06A4 000:744 JLINK_ReadReg(R0)  returns 0x00000000 (0000ms, 0169ms total)
T06A4 000:797 JLINK_WriteReg(R0, 0x00000001)  returns 0x00 (0000ms, 0169ms total)
T06A4 000:797 JLINK_WriteReg(R1, 0x01312D00)  returns 0x00 (0000ms, 0169ms total)
T06A4 000:797 JLINK_WriteReg(R2, 0x00000001)  returns 0x00 (0000ms, 0169ms total)
T06A4 000:797 JLINK_WriteReg(R3, 0x00000000)  returns 0x00 (0000ms, 0169ms total)
T06A4 000:797 JLINK_WriteReg(R4, 0x00000000)  returns 0x00 (0000ms, 0169ms total)
T06A4 000:797 JLINK_WriteReg(R5, 0x00000000)  returns 0x00 (0000ms, 0169ms total)
T06A4 000:797 JLINK_WriteReg(R6, 0x00000000)  returns 0x00 (0000ms, 0169ms total)
T06A4 000:797 JLINK_WriteReg(R7, 0x00000000)  returns 0x00 (0000ms, 0169ms total)
T06A4 000:797 JLINK_WriteReg(R8, 0x00000000)  returns 0x00 (0000ms, 0169ms total)
T06A4 000:797 JLINK_WriteReg(R9, 0x20000104)  returns 0x00 (0000ms, 0169ms total)
T06A4 000:797 JLINK_WriteReg(R10, 0x00000000)  returns 0x00 (0000ms, 0169ms total)
T06A4 000:797 JLINK_WriteReg(R11, 0x00000000)  returns 0x00 (0000ms, 0169ms total)
T06A4 000:797 JLINK_WriteReg(R12, 0x00000000)  returns 0x00 (0000ms, 0169ms total)
T06A4 000:797 JLINK_WriteReg(R13 (SP), 0x20004000)  returns 0x00 (0000ms, 0169ms total)
T06A4 000:797 JLINK_WriteReg(R14, 0x20000001)  returns 0x00 (0000ms, 0169ms total)
T06A4 000:797 JLINK_WriteReg(R15 (PC), 0x20000044)  returns 0x00 (0000ms, 0169ms total)
T06A4 000:797 JLINK_WriteReg(XPSR, 0x01000000)  returns 0x00 (0000ms, 0169ms total)
T06A4 000:797 JLINK_WriteReg(MSP, 0x20004000)  returns 0x00 (0000ms, 0169ms total)
T06A4 000:797 JLINK_WriteReg(PSP, 0x20004000)  returns 0x00 (0001ms, 0170ms total)
T06A4 000:798 JLINK_WriteReg(CFBP, 0x00000000)  returns 0x00 (0000ms, 0170ms total)
T06A4 000:798 JLINK_SetBPEx(Addr = 0x20000000, Type = 0xFFFFFFF2)  returns 0x00000003 (0000ms, 0170ms total)
T06A4 000:798 JLINK_Go() (0002ms, 0172ms total)
T06A4 000:800 JLINK_IsHalted() -- CPU_ReadMem(2 bytes @ 0x20000000)  returns TRUE (0005ms, 0177ms total)
T06A4 000:805 JLINK_ReadReg(R15 (PC))  returns 0x20000000 (0000ms, 0172ms total)
T06A4 000:805 JLINK_ClrBPEx(BPHandle = 0x00000003)  returns 0x00 (0000ms, 0172ms total)
T06A4 000:805 JLINK_ReadReg(R0)  returns 0x00000000 (0000ms, 0172ms total)
T06A4 000:816 JLINK_WriteMem(0x20000000, 0x0108 Bytes, ...) - Data: 00 BE 0A E0 0D 78 2D 06 68 40 08 24 40 00 00 D3 ... -- CPU_WriteMem(264 bytes @ 0x20000000)  returns 0x108 (0005ms, 0177ms total)
T06A4 000:821 JLINK_WriteReg(R0, 0x00000000)  returns 0x00 (0000ms, 0177ms total)
T06A4 000:821 JLINK_WriteReg(R1, 0x01312D00)  returns 0x00 (0000ms, 0177ms total)
T06A4 000:821 JLINK_WriteReg(R2, 0x00000002)  returns 0x00 (0000ms, 0177ms total)
T06A4 000:821 JLINK_WriteReg(R3, 0x00000000)  returns 0x00 (0000ms, 0177ms total)
T06A4 000:821 JLINK_WriteReg(R4, 0x00000000)  returns 0x00 (0000ms, 0177ms total)
T06A4 000:821 JLINK_WriteReg(R5, 0x00000000)  returns 0x00 (0000ms, 0177ms total)
T06A4 000:821 JLINK_WriteReg(R6, 0x00000000)  returns 0x00 (0000ms, 0177ms total)
T06A4 000:821 JLINK_WriteReg(R7, 0x00000000)  returns 0x00 (0000ms, 0177ms total)
T06A4 000:821 JLINK_WriteReg(R8, 0x00000000)  returns 0x00 (0001ms, 0178ms total)
T06A4 000:822 JLINK_WriteReg(R9, 0x20000104)  returns 0x00 (0000ms, 0178ms total)
T06A4 000:822 JLINK_WriteReg(R10, 0x00000000)  returns 0x00 (0000ms, 0178ms total)
T06A4 000:822 JLINK_WriteReg(R11, 0x00000000)  returns 0x00 (0000ms, 0178ms total)
T06A4 000:822 JLINK_WriteReg(R12, 0x00000000)  returns 0x00 (0000ms, 0178ms total)
T06A4 000:822 JLINK_WriteReg(R13 (SP), 0x20004000)  returns 0x00 (0000ms, 0178ms total)
T06A4 000:822 JLINK_WriteReg(R14, 0x20000001)  returns 0x00 (0000ms, 0178ms total)
T06A4 000:822 JLINK_WriteReg(R15 (PC), 0x20000040)  returns 0x00 (0000ms, 0178ms total)
T06A4 000:822 JLINK_WriteReg(XPSR, 0x01000000)  returns 0x00 (0000ms, 0178ms total)
T06A4 000:822 JLINK_WriteReg(MSP, 0x20004000)  returns 0x00 (0000ms, 0178ms total)
T06A4 000:822 JLINK_WriteReg(PSP, 0x20004000)  returns 0x00 (0000ms, 0178ms total)
T06A4 000:822 JLINK_WriteReg(CFBP, 0x00000000)  returns 0x00 (0000ms, 0178ms total)
T06A4 000:822 JLINK_SetBPEx(Addr = 0x20000000, Type = 0xFFFFFFF2) -- CPU_ReadMem(4 bytes @ 0x20000000) -- CPU_WriteMem(4 bytes @ 0x20000000) -- CPU_ReadMem(4 bytes @ 0x20000000) -- CPU_WriteMem(4 bytes @ 0x20000000) -- CPU_ReadMem(2 bytes @ 0x20000000)  returns 0x00000004 (0004ms, 0182ms total)
T06A4 000:826 JLINK_Go() -- CPU_WriteMem(2 bytes @ 0x20000000) (0002ms, 0184ms total)
T06A4 000:828 JLINK_IsHalted() -- CPU_ReadMem(2 bytes @ 0x20000000)  returns TRUE (0006ms, 0190ms total)
T06A4 000:834 JLINK_ReadReg(R15 (PC))  returns 0x20000000 (0000ms, 0184ms total)
T06A4 000:834 JLINK_ClrBPEx(BPHandle = 0x00000004)  returns 0x00 (0000ms, 0184ms total)
T06A4 000:834 JLINK_ReadReg(R0)  returns 0x00000000 (0000ms, 0184ms total)
T06A4 000:834 JLINK_WriteMem(0x20000108, 0x0EF8 Bytes, ...) - Data: 48 91 00 20 5D 01 00 00 61 01 00 00 63 01 00 00 ... -- CPU_WriteMem(3832 bytes @ 0x20000108)  returns 0xEF8 (0055ms, 0239ms total)
T06A4 000:889 JLINK_WriteMem(0x20001000, 0x0108 Bytes, ...) - Data: 1A D2 49 4C 6C 34 24 68 A1 F1 12 05 05 EB 85 06 ... -- CPU_WriteMem(264 bytes @ 0x20001000)  returns 0x108 (0004ms, 0243ms total)
T06A4 000:893 JLINK_WriteReg(R0, 0x00000000)  returns 0x00 (0000ms, 0243ms total)
T06A4 000:893 JLINK_WriteReg(R1, 0x00001000)  returns 0x00 (0000ms, 0243ms total)
T06A4 000:893 JLINK_WriteReg(R2, 0x20000108)  returns 0x00 (0001ms, 0244ms total)
T06A4 000:894 JLINK_WriteReg(R3, 0x00000000)  returns 0x00 (0000ms, 0244ms total)
T06A4 000:894 JLINK_WriteReg(R4, 0x00000000)  returns 0x00 (0000ms, 0244ms total)
T06A4 000:894 JLINK_WriteReg(R5, 0x00000000)  returns 0x00 (0000ms, 0244ms total)
T06A4 000:894 JLINK_WriteReg(R6, 0x00000000)  returns 0x00 (0000ms, 0244ms total)
T06A4 000:894 JLINK_WriteReg(R7, 0x00000000)  returns 0x00 (0000ms, 0244ms total)
T06A4 000:894 JLINK_WriteReg(R8, 0x00000000)  returns 0x00 (0000ms, 0244ms total)
T06A4 000:894 JLINK_WriteReg(R9, 0x20000104)  returns 0x00 (0000ms, 0244ms total)
T06A4 000:894 JLINK_WriteReg(R10, 0x00000000)  returns 0x00 (0000ms, 0244ms total)
T06A4 000:894 JLINK_WriteReg(R11, 0x00000000)  returns 0x00 (0000ms, 0244ms total)
T06A4 000:894 JLINK_WriteReg(R12, 0x00000000)  returns 0x00 (0000ms, 0244ms total)
T06A4 000:894 JLINK_WriteReg(R13 (SP), 0x20004000)  returns 0x00 (0000ms, 0244ms total)
T06A4 000:894 JLINK_WriteReg(R14, 0x20000001)  returns 0x00 (0000ms, 0244ms total)
T06A4 000:894 JLINK_WriteReg(R15 (PC), 0x20000080)  returns 0x00 (0000ms, 0244ms total)
T06A4 000:894 JLINK_WriteReg(XPSR, 0x01000000)  returns 0x00 (0000ms, 0244ms total)
T06A4 000:894 JLINK_WriteReg(MSP, 0x20004000)  returns 0x00 (0000ms, 0244ms total)
T06A4 000:894 JLINK_WriteReg(PSP, 0x20004000)  returns 0x00 (0000ms, 0244ms total)
T06A4 000:894 JLINK_WriteReg(CFBP, 0x00000000)  returns 0x00 (0000ms, 0244ms total)
T06A4 000:894 JLINK_SetBPEx(Addr = 0x20000000, Type = 0xFFFFFFF2)  returns 0x00000005 (0000ms, 0244ms total)
T06A4 000:894 JLINK_Go() (0002ms, 0246ms total)
T06A4 000:896 JLINK_IsHalted()  returns FALSE (0001ms, 0247ms total)
T06A4 000:935 JLINK_IsHalted() -- CPU_ReadMem(2 bytes @ 0x20000000)  returns TRUE (0005ms, 0251ms total)
T06A4 000:940 JLINK_ReadReg(R15 (PC))  returns 0x20000000 (0000ms, 0246ms total)
T06A4 000:940 JLINK_ClrBPEx(BPHandle = 0x00000005)  returns 0x00 (0000ms, 0246ms total)
T06A4 000:940 JLINK_ReadReg(R0)  returns 0x00000000 (0000ms, 0246ms total)
T06A4 000:941 JLINK_WriteMem(0x20000108, 0x0EF8 Bytes, ...) - Data: C5 F8 74 41 A2 F1 64 04 8D 1F 05 EB 85 05 AC 40 ... -- CPU_WriteMem(3832 bytes @ 0x20000108)  returns 0xEF8 (0055ms, 0301ms total)
T06A4 000:996 JLINK_WriteMem(0x20001000, 0x0108 Bytes, ...) - Data: 0E 49 48 62 88 04 00 68 40 F0 01 00 89 04 08 60 ... -- CPU_WriteMem(264 bytes @ 0x20001000)  returns 0x108 (0005ms, 0306ms total)
T06A4 001:001 JLINK_WriteReg(R0, 0x00001000)  returns 0x00 (0000ms, 0306ms total)
T06A4 001:001 JLINK_WriteReg(R1, 0x00001000)  returns 0x00 (0000ms, 0306ms total)
T06A4 001:001 JLINK_WriteReg(R2, 0x20000108)  returns 0x00 (0000ms, 0306ms total)
T06A4 001:001 JLINK_WriteReg(R3, 0x00000000)  returns 0x00 (0000ms, 0306ms total)
T06A4 001:001 JLINK_WriteReg(R4, 0x00000000)  returns 0x00 (0000ms, 0306ms total)
T06A4 001:001 JLINK_WriteReg(R5, 0x00000000)  returns 0x00 (0000ms, 0306ms total)
T06A4 001:001 JLINK_WriteReg(R6, 0x00000000)  returns 0x00 (0000ms, 0306ms total)
T06A4 001:001 JLINK_WriteReg(R7, 0x00000000)  returns 0x00 (0000ms, 0306ms total)
T06A4 001:001 JLINK_WriteReg(R8, 0x00000000)  returns 0x00 (0000ms, 0306ms total)
T06A4 001:001 JLINK_WriteReg(R9, 0x20000104)  returns 0x00 (0000ms, 0306ms total)
T06A4 001:001 JLINK_WriteReg(R10, 0x00000000)  returns 0x00 (0000ms, 0306ms total)
T06A4 001:001 JLINK_WriteReg(R11, 0x00000000)  returns 0x00 (0000ms, 0306ms total)
T06A4 001:001 JLINK_WriteReg(R12, 0x00000000)  returns 0x00 (0000ms, 0306ms total)
T06A4 001:002 JLINK_WriteReg(R13 (SP), 0x20004000)  returns 0x00 (0000ms, 0307ms total)
T06A4 001:002 JLINK_WriteReg(R14, 0x20000001)  returns 0x00 (0000ms, 0307ms total)
T06A4 001:002 JLINK_WriteReg(R15 (PC), 0x20000080)  returns 0x00 (0000ms, 0307ms total)
T06A4 001:002 JLINK_WriteReg(XPSR, 0x01000000)  returns 0x00 (0000ms, 0307ms total)
T06A4 001:002 JLINK_WriteReg(MSP, 0x20004000)  returns 0x00 (0000ms, 0307ms total)
T06A4 001:002 JLINK_WriteReg(PSP, 0x20004000)  returns 0x00 (0000ms, 0307ms total)
T06A4 001:002 JLINK_WriteReg(CFBP, 0x00000000)  returns 0x00 (0000ms, 0307ms total)
T06A4 001:002 JLINK_SetBPEx(Addr = 0x20000000, Type = 0xFFFFFFF2)  returns 0x00000006 (0000ms, 0307ms total)
T06A4 001:002 JLINK_Go() (0002ms, 0309ms total)
T06A4 001:004 JLINK_IsHalted()  returns FALSE (0001ms, 0310ms total)
T06A4 001:007 JLINK_IsHalted()  returns FALSE (0000ms, 0309ms total)
T06A4 001:009 JLINK_IsHalted()  returns FALSE (0000ms, 0309ms total)
T06A4 001:011 JLINK_IsHalted()  returns FALSE (0000ms, 0309ms total)
T06A4 001:013 JLINK_IsHalted()  returns FALSE (0000ms, 0309ms total)
T06A4 001:015 JLINK_IsHalted()  returns FALSE (0000ms, 0309ms total)
T06A4 001:017 JLINK_IsHalted()  returns FALSE (0000ms, 0309ms total)
T06A4 001:019 JLINK_IsHalted()  returns FALSE (0000ms, 0309ms total)
T06A4 001:021 JLINK_IsHalted()  returns FALSE (0000ms, 0309ms total)
T06A4 001:023 JLINK_IsHalted()  returns FALSE (0000ms, 0309ms total)
T06A4 001:025 JLINK_IsHalted()  returns FALSE (0000ms, 0309ms total)
T06A4 001:027 JLINK_IsHalted()  returns FALSE (0000ms, 0309ms total)
T06A4 001:048 JLINK_IsHalted() -- CPU_ReadMem(2 bytes @ 0x20000000)  returns TRUE (0005ms, 0314ms total)
T06A4 001:053 JLINK_ReadReg(R15 (PC))  returns 0x20000000 (0000ms, 0309ms total)
T06A4 001:053 JLINK_ClrBPEx(BPHandle = 0x00000006)  returns 0x00 (0000ms, 0309ms total)
T06A4 001:053 JLINK_ReadReg(R0)  returns 0x00000000 (0000ms, 0309ms total)
T06A4 001:054 JLINK_WriteMem(0x20000108, 0x0EF8 Bytes, ...) - Data: E8 79 00 04 69 7A 40 EA 01 60 E1 68 08 43 E0 60 ... -- CPU_WriteMem(3832 bytes @ 0x20000108)  returns 0xEF8 (0055ms, 0364ms total)
T06A4 001:109 JLINK_WriteMem(0x20001000, 0x0108 Bytes, ...) - Data: C0 64 26 03 30 46 FE F7 A5 FD 4F F6 FF 70 00 EA ... -- CPU_WriteMem(264 bytes @ 0x20001000)  returns 0x108 (0005ms, 0369ms total)
T06A4 001:114 JLINK_WriteReg(R0, 0x00002000)  returns 0x00 (0000ms, 0369ms total)
T06A4 001:114 JLINK_WriteReg(R1, 0x00001000)  returns 0x00 (0000ms, 0369ms total)
T06A4 001:114 JLINK_WriteReg(R2, 0x20000108)  returns 0x00 (0000ms, 0369ms total)
T06A4 001:114 JLINK_WriteReg(R3, 0x00000000)  returns 0x00 (0000ms, 0369ms total)
T06A4 001:114 JLINK_WriteReg(R4, 0x00000000)  returns 0x00 (0000ms, 0369ms total)
T06A4 001:114 JLINK_WriteReg(R5, 0x00000000)  returns 0x00 (0000ms, 0369ms total)
T06A4 001:114 JLINK_WriteReg(R6, 0x00000000)  returns 0x00 (0000ms, 0369ms total)
T06A4 001:114 JLINK_WriteReg(R7, 0x00000000)  returns 0x00 (0000ms, 0369ms total)
T06A4 001:114 JLINK_WriteReg(R8, 0x00000000)  returns 0x00 (0000ms, 0369ms total)
T06A4 001:114 JLINK_WriteReg(R9, 0x20000104)  returns 0x00 (0000ms, 0369ms total)
T06A4 001:114 JLINK_WriteReg(R10, 0x00000000)  returns 0x00 (0000ms, 0369ms total)
T06A4 001:114 JLINK_WriteReg(R11, 0x00000000)  returns 0x00 (0000ms, 0369ms total)
T06A4 001:114 JLINK_WriteReg(R12, 0x00000000)  returns 0x00 (0000ms, 0369ms total)
T06A4 001:114 JLINK_WriteReg(R13 (SP), 0x20004000)  returns 0x00 (0000ms, 0369ms total)
T06A4 001:114 JLINK_WriteReg(R14, 0x20000001)  returns 0x00 (0000ms, 0369ms total)
T06A4 001:114 JLINK_WriteReg(R15 (PC), 0x20000080)  returns 0x00 (0000ms, 0369ms total)
T06A4 001:114 JLINK_WriteReg(XPSR, 0x01000000)  returns 0x00 (0000ms, 0369ms total)
T06A4 001:114 JLINK_WriteReg(MSP, 0x20004000)  returns 0x00 (0000ms, 0369ms total)
T06A4 001:114 JLINK_WriteReg(PSP, 0x20004000)  returns 0x00 (0000ms, 0369ms total)
T06A4 001:114 JLINK_WriteReg(CFBP, 0x00000000)  returns 0x00 (0000ms, 0369ms total)
T06A4 001:114 JLINK_SetBPEx(Addr = 0x20000000, Type = 0xFFFFFFF2)  returns 0x00000007 (0000ms, 0369ms total)
T06A4 001:114 JLINK_Go() (0002ms, 0371ms total)
T06A4 001:116 JLINK_IsHalted()  returns FALSE (0001ms, 0372ms total)
T06A4 001:120 JLINK_IsHalted()  returns FALSE (0000ms, 0371ms total)
T06A4 001:122 JLINK_IsHalted()  returns FALSE (0000ms, 0371ms total)
T06A4 001:124 JLINK_IsHalted()  returns FALSE (0000ms, 0371ms total)
T06A4 001:161 JLINK_IsHalted() -- CPU_ReadMem(2 bytes @ 0x20000000)  returns TRUE (0005ms, 0376ms total)
T06A4 001:166 JLINK_ReadReg(R15 (PC))  returns 0x20000000 (0000ms, 0371ms total)
T06A4 001:166 JLINK_ClrBPEx(BPHandle = 0x00000007)  returns 0x00 (0000ms, 0371ms total)
T06A4 001:166 JLINK_ReadReg(R0)  returns 0x00000000 (0000ms, 0371ms total)
T06A4 001:167 JLINK_WriteMem(0x20000108, 0x0EF8 Bytes, ...) - Data: 00 BF 29 46 20 46 FF F7 59 FA 05 46 35 B9 00 26 ... -- CPU_WriteMem(3832 bytes @ 0x20000108)  returns 0xEF8 (0055ms, 0426ms total)
T06A4 001:222 JLINK_WriteMem(0x20001000, 0x0108 Bytes, ...) - Data: 33 F8 1C 00 F0 BD 00 00 1A A4 01 00 2D E9 F0 41 ... -- CPU_WriteMem(264 bytes @ 0x20001000)  returns 0x108 (0005ms, 0431ms total)
T06A4 001:227 JLINK_WriteReg(R0, 0x00003000)  returns 0x00 (0000ms, 0431ms total)
T06A4 001:227 JLINK_WriteReg(R1, 0x00001000)  returns 0x00 (0000ms, 0431ms total)
T06A4 001:227 JLINK_WriteReg(R2, 0x20000108)  returns 0x00 (0000ms, 0431ms total)
T06A4 001:227 JLINK_WriteReg(R3, 0x00000000)  returns 0x00 (0000ms, 0431ms total)
T06A4 001:227 JLINK_WriteReg(R4, 0x00000000)  returns 0x00 (0000ms, 0431ms total)
T06A4 001:227 JLINK_WriteReg(R5, 0x00000000)  returns 0x00 (0000ms, 0431ms total)
T06A4 001:227 JLINK_WriteReg(R6, 0x00000000)  returns 0x00 (0000ms, 0431ms total)
T06A4 001:227 JLINK_WriteReg(R7, 0x00000000)  returns 0x00 (0000ms, 0431ms total)
T06A4 001:227 JLINK_WriteReg(R8, 0x00000000)  returns 0x00 (0000ms, 0431ms total)
T06A4 001:227 JLINK_WriteReg(R9, 0x20000104)  returns 0x00 (0000ms, 0431ms total)
T06A4 001:227 JLINK_WriteReg(R10, 0x00000000)  returns 0x00 (0000ms, 0431ms total)
T06A4 001:227 JLINK_WriteReg(R11, 0x00000000)  returns 0x00 (0000ms, 0431ms total)
T06A4 001:227 JLINK_WriteReg(R12, 0x00000000)  returns 0x00 (0000ms, 0431ms total)
T06A4 001:227 JLINK_WriteReg(R13 (SP), 0x20004000)  returns 0x00 (0000ms, 0431ms total)
T06A4 001:227 JLINK_WriteReg(R14, 0x20000001)  returns 0x00 (0001ms, 0432ms total)
T06A4 001:228 JLINK_WriteReg(R15 (PC), 0x20000080)  returns 0x00 (0000ms, 0432ms total)
T06A4 001:228 JLINK_WriteReg(XPSR, 0x01000000)  returns 0x00 (0000ms, 0432ms total)
T06A4 001:228 JLINK_WriteReg(MSP, 0x20004000)  returns 0x00 (0000ms, 0432ms total)
T06A4 001:228 JLINK_WriteReg(PSP, 0x20004000)  returns 0x00 (0000ms, 0432ms total)
T06A4 001:228 JLINK_WriteReg(CFBP, 0x00000000)  returns 0x00 (0000ms, 0432ms total)
T06A4 001:228 JLINK_SetBPEx(Addr = 0x20000000, Type = 0xFFFFFFF2)  returns 0x00000008 (0000ms, 0432ms total)
T06A4 001:228 JLINK_Go() (0003ms, 0435ms total)
T06A4 001:231 JLINK_IsHalted()  returns FALSE (0001ms, 0436ms total)
T06A4 001:239 JLINK_IsHalted()  returns FALSE (0000ms, 0435ms total)
T06A4 001:241 JLINK_IsHalted()  returns FALSE (0000ms, 0435ms total)
T06A4 001:243 JLINK_IsHalted()  returns FALSE (0000ms, 0435ms total)
T06A4 001:245 JLINK_IsHalted()  returns FALSE (0000ms, 0435ms total)
T06A4 001:247 JLINK_IsHalted()  returns FALSE (0000ms, 0435ms total)
T06A4 001:279 JLINK_IsHalted() -- CPU_ReadMem(2 bytes @ 0x20000000)  returns TRUE (0005ms, 0440ms total)
T06A4 001:284 JLINK_ReadReg(R15 (PC))  returns 0x20000000 (0000ms, 0435ms total)
T06A4 001:284 JLINK_ClrBPEx(BPHandle = 0x00000008)  returns 0x00 (0000ms, 0435ms total)
T06A4 001:284 JLINK_ReadReg(R0)  returns 0x00000000 (0000ms, 0435ms total)
T06A4 001:285 JLINK_WriteMem(0x20000108, 0x0EF8 Bytes, ...) - Data: 03 E0 A1 F5 E3 56 B1 B2 00 BF 00 BF 04 E0 00 2D ... -- CPU_WriteMem(3832 bytes @ 0x20000108)  returns 0xEF8 (0055ms, 0490ms total)
T06A4 001:341 JLINK_WriteMem(0x20001000, 0x0108 Bytes, ...) - Data: 18 B9 4F F0 FF 30 BD E8 F0 81 07 EB 04 20 84 B2 ... -- CPU_WriteMem(264 bytes @ 0x20001000)  returns 0x108 (0004ms, 0494ms total)
T06A4 001:346 JLINK_WriteReg(R0, 0x00004000)  returns 0x00 (0000ms, 0494ms total)
T06A4 001:346 JLINK_WriteReg(R1, 0x00001000)  returns 0x00 (0000ms, 0494ms total)
T06A4 001:346 JLINK_WriteReg(R2, 0x20000108)  returns 0x00 (0000ms, 0494ms total)
T06A4 001:346 JLINK_WriteReg(R3, 0x00000000)  returns 0x00 (0000ms, 0494ms total)
T06A4 001:346 JLINK_WriteReg(R4, 0x00000000)  returns 0x00 (0000ms, 0494ms total)
T06A4 001:346 JLINK_WriteReg(R5, 0x00000000)  returns 0x00 (0000ms, 0494ms total)
T06A4 001:346 JLINK_WriteReg(R6, 0x00000000)  returns 0x00 (0000ms, 0494ms total)
T06A4 001:346 JLINK_WriteReg(R7, 0x00000000)  returns 0x00 (0000ms, 0494ms total)
T06A4 001:346 JLINK_WriteReg(R8, 0x00000000)  returns 0x00 (0000ms, 0494ms total)
T06A4 001:346 JLINK_WriteReg(R9, 0x20000104)  returns 0x00 (0000ms, 0494ms total)
T06A4 001:346 JLINK_WriteReg(R10, 0x00000000)  returns 0x00 (0000ms, 0494ms total)
T06A4 001:346 JLINK_WriteReg(R11, 0x00000000)  returns 0x00 (0000ms, 0494ms total)
T06A4 001:346 JLINK_WriteReg(R12, 0x00000000)  returns 0x00 (0000ms, 0494ms total)
T06A4 001:346 JLINK_WriteReg(R13 (SP), 0x20004000)  returns 0x00 (0000ms, 0494ms total)
T06A4 001:346 JLINK_WriteReg(R14, 0x20000001)  returns 0x00 (0000ms, 0494ms total)
T06A4 001:346 JLINK_WriteReg(R15 (PC), 0x20000080)  returns 0x00 (0000ms, 0494ms total)
T06A4 001:346 JLINK_WriteReg(XPSR, 0x01000000)  returns 0x00 (0000ms, 0494ms total)
T06A4 001:346 JLINK_WriteReg(MSP, 0x20004000)  returns 0x00 (0000ms, 0494ms total)
T06A4 001:346 JLINK_WriteReg(PSP, 0x20004000)  returns 0x00 (0000ms, 0494ms total)
T06A4 001:346 JLINK_WriteReg(CFBP, 0x00000000)  returns 0x00 (0000ms, 0494ms total)
T06A4 001:347 JLINK_SetBPEx(Addr = 0x20000000, Type = 0xFFFFFFF2)  returns 0x00000009 (0000ms, 0494ms total)
T06A4 001:347 JLINK_Go() (0002ms, 0496ms total)
T06A4 001:349 JLINK_IsHalted()  returns FALSE (0000ms, 0496ms total)
T06A4 001:351 JLINK_IsHalted()  returns FALSE (0000ms, 0496ms total)
T06A4 001:353 JLINK_IsHalted()  returns FALSE (0000ms, 0496ms total)
T06A4 001:373 JLINK_IsHalted()  returns FALSE (0000ms, 0496ms total)
T06A4 001:375 JLINK_IsHalted()  returns FALSE (0000ms, 0496ms total)
T06A4 001:377 JLINK_IsHalted()  returns FALSE (0000ms, 0496ms total)
T06A4 001:379 JLINK_IsHalted() -- CPU_ReadMem(2 bytes @ 0x20000000)  returns TRUE (0005ms, 0501ms total)
T06A4 001:384 JLINK_ReadReg(R15 (PC))  returns 0x20000000 (0000ms, 0496ms total)
T06A4 001:384 JLINK_ClrBPEx(BPHandle = 0x00000009)  returns 0x00 (0000ms, 0496ms total)
T06A4 001:384 JLINK_ReadReg(R0)  returns 0x00000000 (0000ms, 0496ms total)
T06A4 001:385 JLINK_WriteMem(0x20000108, 0x0EF8 Bytes, ...) - Data: AD A8 6B 01 B1 A8 CE 01 A3 A8 D0 01 AB A8 D2 01 ... -- CPU_WriteMem(3832 bytes @ 0x20000108)  returns 0xEF8 (0055ms, 0551ms total)
T06A4 001:440 JLINK_WriteMem(0x20001000, 0x0108 Bytes, ...) - Data: B3 81 0C 4F B4 81 0D 4F E9 CE 0E 4F BF BC 0F 4F ... -- CPU_WriteMem(264 bytes @ 0x20001000)  returns 0x108 (0005ms, 0556ms total)
T06A4 001:445 JLINK_WriteReg(R0, 0x00005000)  returns 0x00 (0000ms, 0556ms total)
T06A4 001:445 JLINK_WriteReg(R1, 0x00001000)  returns 0x00 (0000ms, 0556ms total)
T06A4 001:445 JLINK_WriteReg(R2, 0x20000108)  returns 0x00 (0000ms, 0556ms total)
T06A4 001:445 JLINK_WriteReg(R3, 0x00000000)  returns 0x00 (0000ms, 0556ms total)
T06A4 001:445 JLINK_WriteReg(R4, 0x00000000)  returns 0x00 (0001ms, 0557ms total)
T06A4 001:446 JLINK_WriteReg(R5, 0x00000000)  returns 0x00 (0000ms, 0557ms total)
T06A4 001:446 JLINK_WriteReg(R6, 0x00000000)  returns 0x00 (0000ms, 0557ms total)
T06A4 001:446 JLINK_WriteReg(R7, 0x00000000)  returns 0x00 (0000ms, 0557ms total)
T06A4 001:446 JLINK_WriteReg(R8, 0x00000000)  returns 0x00 (0000ms, 0557ms total)
T06A4 001:446 JLINK_WriteReg(R9, 0x20000104)  returns 0x00 (0000ms, 0557ms total)
T06A4 001:446 JLINK_WriteReg(R10, 0x00000000)  returns 0x00 (0000ms, 0557ms total)
T06A4 001:446 JLINK_WriteReg(R11, 0x00000000)  returns 0x00 (0000ms, 0557ms total)
T06A4 001:446 JLINK_WriteReg(R12, 0x00000000)  returns 0x00 (0000ms, 0557ms total)
T06A4 001:446 JLINK_WriteReg(R13 (SP), 0x20004000)  returns 0x00 (0000ms, 0557ms total)
T06A4 001:446 JLINK_WriteReg(R14, 0x20000001)  returns 0x00 (0000ms, 0557ms total)
T06A4 001:446 JLINK_WriteReg(R15 (PC), 0x20000080)  returns 0x00 (0000ms, 0557ms total)
T06A4 001:446 JLINK_WriteReg(XPSR, 0x01000000)  returns 0x00 (0000ms, 0557ms total)
T06A4 001:446 JLINK_WriteReg(MSP, 0x20004000)  returns 0x00 (0000ms, 0557ms total)
T06A4 001:446 JLINK_WriteReg(PSP, 0x20004000)  returns 0x00 (0000ms, 0557ms total)
T06A4 001:446 JLINK_WriteReg(CFBP, 0x00000000)  returns 0x00 (0000ms, 0557ms total)
T06A4 001:446 JLINK_SetBPEx(Addr = 0x20000000, Type = 0xFFFFFFF2)  returns 0x0000000A (0000ms, 0557ms total)
T06A4 001:446 JLINK_Go() (0003ms, 0560ms total)
T06A4 001:449 JLINK_IsHalted()  returns FALSE (0001ms, 0561ms total)
T06A4 001:457 JLINK_IsHalted()  returns FALSE (0000ms, 0560ms total)
T06A4 001:459 JLINK_IsHalted()  returns FALSE (0000ms, 0560ms total)
T06A4 001:461 JLINK_IsHalted()  returns FALSE (0000ms, 0560ms total)
T06A4 001:489 JLINK_IsHalted() -- CPU_ReadMem(2 bytes @ 0x20000000)  returns TRUE (0005ms, 0565ms total)
T06A4 001:494 JLINK_ReadReg(R15 (PC))  returns 0x20000000 (0000ms, 0560ms total)
T06A4 001:494 JLINK_ClrBPEx(BPHandle = 0x0000000A)  returns 0x00 (0000ms, 0560ms total)
T06A4 001:494 JLINK_ReadReg(R0)  returns 0x00000000 (0000ms, 0560ms total)
T06A4 001:495 JLINK_WriteMem(0x20000108, 0x0EF8 Bytes, ...) - Data: BB CE 4E 4F CD B5 4F 4F A1 D7 50 4F F4 D7 51 4F ... -- CPU_WriteMem(3832 bytes @ 0x20000108)  returns 0xEF8 (0057ms, 0617ms total)
T06A4 001:552 JLINK_WriteMem(0x20001000, 0x0108 Bytes, ...) - Data: FC 84 0C 53 FD 84 0D 53 E9 D9 0E 53 FE 84 0F 53 ... -- CPU_WriteMem(264 bytes @ 0x20001000)  returns 0x108 (0006ms, 0623ms total)
T06A4 001:558 JLINK_WriteReg(R0, 0x00006000)  returns 0x00 (0000ms, 0623ms total)
T06A4 001:558 JLINK_WriteReg(R1, 0x00001000)  returns 0x00 (0000ms, 0623ms total)
T06A4 001:558 JLINK_WriteReg(R2, 0x20000108)  returns 0x00 (0000ms, 0623ms total)
T06A4 001:558 JLINK_WriteReg(R3, 0x00000000)  returns 0x00 (0000ms, 0623ms total)
T06A4 001:558 JLINK_WriteReg(R4, 0x00000000)  returns 0x00 (0000ms, 0623ms total)
T06A4 001:558 JLINK_WriteReg(R5, 0x00000000)  returns 0x00 (0001ms, 0624ms total)
T06A4 001:559 JLINK_WriteReg(R6, 0x00000000)  returns 0x00 (0000ms, 0624ms total)
T06A4 001:559 JLINK_WriteReg(R7, 0x00000000)  returns 0x00 (0000ms, 0624ms total)
T06A4 001:559 JLINK_WriteReg(R8, 0x00000000)  returns 0x00 (0000ms, 0624ms total)
T06A4 001:559 JLINK_WriteReg(R9, 0x20000104)  returns 0x00 (0000ms, 0624ms total)
T06A4 001:559 JLINK_WriteReg(R10, 0x00000000)  returns 0x00 (0001ms, 0625ms total)
T06A4 001:560 JLINK_WriteReg(R11, 0x00000000)  returns 0x00 (0000ms, 0625ms total)
T06A4 001:560 JLINK_WriteReg(R12, 0x00000000)  returns 0x00 (0000ms, 0625ms total)
T06A4 001:560 JLINK_WriteReg(R13 (SP), 0x20004000)  returns 0x00 (0000ms, 0625ms total)
T06A4 001:560 JLINK_WriteReg(R14, 0x20000001)  returns 0x00 (0000ms, 0625ms total)
T06A4 001:560 JLINK_WriteReg(R15 (PC), 0x20000080)  returns 0x00 (0000ms, 0625ms total)
T06A4 001:560 JLINK_WriteReg(XPSR, 0x01000000)  returns 0x00 (0000ms, 0625ms total)
T06A4 001:560 JLINK_WriteReg(MSP, 0x20004000)  returns 0x00 (0000ms, 0625ms total)
T06A4 001:560 JLINK_WriteReg(PSP, 0x20004000)  returns 0x00 (0000ms, 0625ms total)
T06A4 001:560 JLINK_WriteReg(CFBP, 0x00000000)  returns 0x00 (0000ms, 0625ms total)
T06A4 001:560 JLINK_SetBPEx(Addr = 0x20000000, Type = 0xFFFFFFF2)  returns 0x0000000B (0000ms, 0625ms total)
T06A4 001:560 JLINK_Go() (0002ms, 0627ms total)
T06A4 001:562 JLINK_IsHalted()  returns FALSE (0001ms, 0628ms total)
T06A4 001:565 JLINK_IsHalted()  returns FALSE (0000ms, 0627ms total)
T06A4 001:567 JLINK_IsHalted()  returns FALSE (0000ms, 0627ms total)
T06A4 001:569 JLINK_IsHalted()  returns FALSE (0000ms, 0627ms total)
T06A4 001:571 JLINK_IsHalted()  returns FALSE (0000ms, 0627ms total)
T06A4 001:594 JLINK_IsHalted() -- CPU_ReadMem(2 bytes @ 0x20000000)  returns TRUE (0005ms, 0632ms total)
T06A4 001:599 JLINK_ReadReg(R15 (PC))  returns 0x20000000 (0000ms, 0627ms total)
T06A4 001:599 JLINK_ClrBPEx(BPHandle = 0x0000000B)  returns 0x00 (0000ms, 0627ms total)
T06A4 001:599 JLINK_ReadReg(R0)  returns 0x00000000 (0000ms, 0627ms total)
T06A4 001:601 JLINK_WriteMem(0x20000108, 0x0EF8 Bytes, ...) - Data: 64 85 4E 53 AA BB 4F 53 AD D0 50 53 65 85 51 53 ... -- CPU_WriteMem(3832 bytes @ 0x20000108)  returns 0xEF8 (0055ms, 0682ms total)
T06A4 001:656 JLINK_WriteMem(0x20001000, 0x0108 Bytes, ...) - Data: F8 87 0C 57 F9 87 0D 57 FA 87 0E 57 FB 87 0F 57 ... -- CPU_WriteMem(264 bytes @ 0x20001000)  returns 0x108 (0004ms, 0686ms total)
T06A4 001:660 JLINK_WriteReg(R0, 0x00007000)  returns 0x00 (0000ms, 0686ms total)
T06A4 001:660 JLINK_WriteReg(R1, 0x00001000)  returns 0x00 (0000ms, 0686ms total)
T06A4 001:660 JLINK_WriteReg(R2, 0x20000108)  returns 0x00 (0000ms, 0686ms total)
T06A4 001:660 JLINK_WriteReg(R3, 0x00000000)  returns 0x00 (0000ms, 0686ms total)
T06A4 001:660 JLINK_WriteReg(R4, 0x00000000)  returns 0x00 (0000ms, 0686ms total)
T06A4 001:660 JLINK_WriteReg(R5, 0x00000000)  returns 0x00 (0000ms, 0686ms total)
T06A4 001:660 JLINK_WriteReg(R6, 0x00000000)  returns 0x00 (0000ms, 0686ms total)
T06A4 001:660 JLINK_WriteReg(R7, 0x00000000)  returns 0x00 (0001ms, 0687ms total)
T06A4 001:661 JLINK_WriteReg(R8, 0x00000000)  returns 0x00 (0000ms, 0687ms total)
T06A4 001:661 JLINK_WriteReg(R9, 0x20000104)  returns 0x00 (0000ms, 0687ms total)
T06A4 001:661 JLINK_WriteReg(R10, 0x00000000)  returns 0x00 (0000ms, 0687ms total)
T06A4 001:661 JLINK_WriteReg(R11, 0x00000000)  returns 0x00 (0000ms, 0687ms total)
T06A4 001:661 JLINK_WriteReg(R12, 0x00000000)  returns 0x00 (0000ms, 0687ms total)
T06A4 001:661 JLINK_WriteReg(R13 (SP), 0x20004000)  returns 0x00 (0000ms, 0687ms total)
T06A4 001:661 JLINK_WriteReg(R14, 0x20000001)  returns 0x00 (0000ms, 0687ms total)
T06A4 001:661 JLINK_WriteReg(R15 (PC), 0x20000080)  returns 0x00 (0000ms, 0687ms total)
T06A4 001:661 JLINK_WriteReg(XPSR, 0x01000000)  returns 0x00 (0000ms, 0687ms total)
T06A4 001:661 JLINK_WriteReg(MSP, 0x20004000)  returns 0x00 (0000ms, 0687ms total)
T06A4 001:661 JLINK_WriteReg(PSP, 0x20004000)  returns 0x00 (0000ms, 0687ms total)
T06A4 001:661 JLINK_WriteReg(CFBP, 0x00000000)  returns 0x00 (0000ms, 0687ms total)
T06A4 001:661 JLINK_SetBPEx(Addr = 0x20000000, Type = 0xFFFFFFF2)  returns 0x0000000C (0000ms, 0687ms total)
T06A4 001:661 JLINK_Go() (0002ms, 0689ms total)
T06A4 001:663 JLINK_IsHalted()  returns FALSE (0001ms, 0690ms total)
T06A4 001:673 JLINK_IsHalted()  returns FALSE (0000ms, 0689ms total)
T06A4 001:675 JLINK_IsHalted()  returns FALSE (0000ms, 0689ms total)
T06A4 001:677 JLINK_IsHalted()  returns FALSE (0000ms, 0689ms total)
T06A4 001:701 JLINK_IsHalted() -- CPU_ReadMem(2 bytes @ 0x20000000)  returns TRUE (0005ms, 0694ms total)
T06A4 001:706 JLINK_ReadReg(R15 (PC))  returns 0x20000000 (0000ms, 0689ms total)
T06A4 001:706 JLINK_ClrBPEx(BPHandle = 0x0000000C)  returns 0x00 (0000ms, 0689ms total)
T06A4 001:706 JLINK_ReadReg(R0)  returns 0x00000000 (0000ms, 0689ms total)
T06A4 001:707 JLINK_WriteMem(0x20000108, 0x0EF8 Bytes, ...) - Data: AE CC 4E 57 B2 BF 4F 57 B5 BB 50 57 F8 D7 51 57 ... -- CPU_WriteMem(3832 bytes @ 0x20000108)  returns 0xEF8 (0055ms, 0744ms total)
T06A4 001:762 JLINK_WriteMem(0x20001000, 0x0108 Bytes, ...) - Data: C8 8B 0C 5B C9 8B 0D 5B CA 8B 0E 5B CB 8B 0F 5B ... -- CPU_WriteMem(264 bytes @ 0x20001000)  returns 0x108 (0004ms, 0748ms total)
T06A4 001:766 JLINK_WriteReg(R0, 0x00008000)  returns 0x00 (0000ms, 0748ms total)
T06A4 001:766 JLINK_WriteReg(R1, 0x00001000)  returns 0x00 (0000ms, 0748ms total)
T06A4 001:766 JLINK_WriteReg(R2, 0x20000108)  returns 0x00 (0000ms, 0748ms total)
T06A4 001:766 JLINK_WriteReg(R3, 0x00000000)  returns 0x00 (0000ms, 0748ms total)
T06A4 001:766 JLINK_WriteReg(R4, 0x00000000)  returns 0x00 (0000ms, 0748ms total)
T06A4 001:766 JLINK_WriteReg(R5, 0x00000000)  returns 0x00 (0000ms, 0748ms total)
T06A4 001:766 JLINK_WriteReg(R6, 0x00000000)  returns 0x00 (0000ms, 0748ms total)
T06A4 001:766 JLINK_WriteReg(R7, 0x00000000)  returns 0x00 (0001ms, 0749ms total)
T06A4 001:767 JLINK_WriteReg(R8, 0x00000000)  returns 0x00 (0000ms, 0749ms total)
T06A4 001:767 JLINK_WriteReg(R9, 0x20000104)  returns 0x00 (0000ms, 0749ms total)
T06A4 001:767 JLINK_WriteReg(R10, 0x00000000)  returns 0x00 (0000ms, 0749ms total)
T06A4 001:767 JLINK_WriteReg(R11, 0x00000000)  returns 0x00 (0000ms, 0749ms total)
T06A4 001:767 JLINK_WriteReg(R12, 0x00000000)  returns 0x00 (0000ms, 0749ms total)
T06A4 001:767 JLINK_WriteReg(R13 (SP), 0x20004000)  returns 0x00 (0000ms, 0749ms total)
T06A4 001:767 JLINK_WriteReg(R14, 0x20000001)  returns 0x00 (0000ms, 0749ms total)
T06A4 001:767 JLINK_WriteReg(R15 (PC), 0x20000080)  returns 0x00 (0000ms, 0749ms total)
T06A4 001:767 JLINK_WriteReg(XPSR, 0x01000000)  returns 0x00 (0000ms, 0749ms total)
T06A4 001:767 JLINK_WriteReg(MSP, 0x20004000)  returns 0x00 (0000ms, 0749ms total)
T06A4 001:767 JLINK_WriteReg(PSP, 0x20004000)  returns 0x00 (0000ms, 0749ms total)
T06A4 001:767 JLINK_WriteReg(CFBP, 0x00000000)  returns 0x00 (0000ms, 0749ms total)
T06A4 001:767 JLINK_SetBPEx(Addr = 0x20000000, Type = 0xFFFFFFF2)  returns 0x0000000D (0000ms, 0749ms total)
T06A4 001:767 JLINK_Go() (0002ms, 0751ms total)
T06A4 001:769 JLINK_IsHalted()  returns FALSE (0001ms, 0752ms total)
T06A4 001:780 JLINK_IsHalted()  returns FALSE (0000ms, 0751ms total)
T06A4 001:784 JLINK_IsHalted()  returns FALSE (0000ms, 0751ms total)
T06A4 001:786 JLINK_IsHalted()  returns FALSE (0000ms, 0751ms total)
T06A4 001:788 JLINK_IsHalted()  returns FALSE (0000ms, 0751ms total)
T06A4 001:807 JLINK_IsHalted() -- CPU_ReadMem(2 bytes @ 0x20000000)  returns TRUE (0005ms, 0756ms total)
T06A4 001:812 JLINK_ReadReg(R15 (PC))  returns 0x20000000 (0000ms, 0751ms total)
T06A4 001:812 JLINK_ClrBPEx(BPHandle = 0x0000000D)  returns 0x00 (0000ms, 0751ms total)
T06A4 001:812 JLINK_ReadReg(R0)  returns 0x00000000 (0000ms, 0751ms total)
T06A4 001:813 JLINK_WriteMem(0x20000108, 0x0EF8 Bytes, ...) - Data: 45 8C 4E 5B 46 8C 4F 5B 47 8C 50 5B D3 D7 51 5B ... -- CPU_WriteMem(3832 bytes @ 0x20000108)  returns 0xEF8 (0055ms, 0806ms total)
T06A4 001:868 JLINK_WriteMem(0x20001000, 0x0108 Bytes, ...) - Data: AE DF 0C 5F 6F 8F 0D 5F 70 8F 0E 5F 71 8F 0F 5F ... -- CPU_WriteMem(264 bytes @ 0x20001000)  returns 0x108 (0004ms, 0810ms total)
T06A4 001:872 JLINK_WriteReg(R0, 0x00009000)  returns 0x00 (0000ms, 0810ms total)
T06A4 001:872 JLINK_WriteReg(R1, 0x00001000)  returns 0x00 (0001ms, 0811ms total)
T06A4 001:873 JLINK_WriteReg(R2, 0x20000108)  returns 0x00 (0000ms, 0811ms total)
T06A4 001:873 JLINK_WriteReg(R3, 0x00000000)  returns 0x00 (0000ms, 0811ms total)
T06A4 001:873 JLINK_WriteReg(R4, 0x00000000)  returns 0x00 (0000ms, 0811ms total)
T06A4 001:873 JLINK_WriteReg(R5, 0x00000000)  returns 0x00 (0000ms, 0811ms total)
T06A4 001:873 JLINK_WriteReg(R6, 0x00000000)  returns 0x00 (0000ms, 0811ms total)
T06A4 001:873 JLINK_WriteReg(R7, 0x00000000)  returns 0x00 (0000ms, 0811ms total)
T06A4 001:873 JLINK_WriteReg(R8, 0x00000000)  returns 0x00 (0000ms, 0811ms total)
T06A4 001:873 JLINK_WriteReg(R9, 0x20000104)  returns 0x00 (0000ms, 0811ms total)
T06A4 001:873 JLINK_WriteReg(R10, 0x00000000)  returns 0x00 (0000ms, 0811ms total)
T06A4 001:873 JLINK_WriteReg(R11, 0x00000000)  returns 0x00 (0000ms, 0811ms total)
T06A4 001:873 JLINK_WriteReg(R12, 0x00000000)  returns 0x00 (0000ms, 0811ms total)
T06A4 001:873 JLINK_WriteReg(R13 (SP), 0x20004000)  returns 0x00 (0000ms, 0811ms total)
T06A4 001:873 JLINK_WriteReg(R14, 0x20000001)  returns 0x00 (0000ms, 0811ms total)
T06A4 001:873 JLINK_WriteReg(R15 (PC), 0x20000080)  returns 0x00 (0000ms, 0811ms total)
T06A4 001:873 JLINK_WriteReg(XPSR, 0x01000000)  returns 0x00 (0000ms, 0811ms total)
T06A4 001:873 JLINK_WriteReg(MSP, 0x20004000)  returns 0x00 (0000ms, 0811ms total)
T06A4 001:873 JLINK_WriteReg(PSP, 0x20004000)  returns 0x00 (0000ms, 0811ms total)
T06A4 001:873 JLINK_WriteReg(CFBP, 0x00000000)  returns 0x00 (0000ms, 0811ms total)
T06A4 001:873 JLINK_SetBPEx(Addr = 0x20000000, Type = 0xFFFFFFF2)  returns 0x0000000E (0000ms, 0811ms total)
T06A4 001:873 JLINK_Go() (0003ms, 0814ms total)
T06A4 001:876 JLINK_IsHalted()  returns FALSE (0000ms, 0814ms total)
T06A4 001:880 JLINK_IsHalted()  returns FALSE (0000ms, 0814ms total)
T06A4 001:882 JLINK_IsHalted()  returns FALSE (0000ms, 0814ms total)
T06A4 001:884 JLINK_IsHalted()  returns FALSE (0000ms, 0814ms total)
T06A4 001:886 JLINK_IsHalted()  returns FALSE (0000ms, 0814ms total)
T06A4 001:888 JLINK_IsHalted()  returns FALSE (0000ms, 0814ms total)
T06A4 001:890 JLINK_IsHalted()  returns FALSE (0000ms, 0814ms total)
T06A4 001:892 JLINK_IsHalted()  returns FALSE (0000ms, 0814ms total)
T06A4 001:894 JLINK_IsHalted()  returns FALSE (0000ms, 0814ms total)
T06A4 001:896 JLINK_IsHalted()  returns FALSE (0000ms, 0814ms total)
T06A4 001:898 JLINK_IsHalted()  returns FALSE (0000ms, 0814ms total)
T06A4 001:900 JLINK_IsHalted()  returns FALSE (0000ms, 0814ms total)
T06A4 001:902 JLINK_IsHalted()  returns FALSE (0000ms, 0814ms total)
T06A4 001:904 JLINK_IsHalted()  returns FALSE (0000ms, 0814ms total)
T06A4 001:916 JLINK_IsHalted() -- CPU_ReadMem(2 bytes @ 0x20000000)  returns TRUE (0005ms, 0819ms total)
T06A4 001:921 JLINK_ReadReg(R15 (PC))  returns 0x20000000 (0000ms, 0814ms total)
T06A4 001:921 JLINK_ClrBPEx(BPHandle = 0x0000000E)  returns 0x00 (0000ms, 0814ms total)
T06A4 001:921 JLINK_ReadReg(R0)  returns 0x00000000 (0000ms, 0814ms total)
T06A4 001:922 JLINK_WriteMem(0x20000108, 0x0EF8 Bytes, ...) - Data: 9C 8F 4E 5F 9D 8F 4F 5F 9E 8F 50 5F E6 E5 51 5F ... -- CPU_WriteMem(3832 bytes @ 0x20000108)  returns 0xEF8 (0055ms, 0869ms total)
T06A4 001:977 JLINK_WriteMem(0x20001000, 0x0108 Bytes, ...) - Data: 99 92 0C 63 9A 92 0D 63 9B 92 0E 63 E6 BF 0F 63 ... -- CPU_WriteMem(264 bytes @ 0x20001000)  returns 0x108 (0005ms, 0874ms total)
T06A4 001:982 JLINK_WriteReg(R0, 0x0000A000)  returns 0x00 (0000ms, 0874ms total)
T06A4 001:982 JLINK_WriteReg(R1, 0x00001000)  returns 0x00 (0000ms, 0874ms total)
T06A4 001:982 JLINK_WriteReg(R2, 0x20000108)  returns 0x00 (0000ms, 0874ms total)
T06A4 001:982 JLINK_WriteReg(R3, 0x00000000)  returns 0x00 (0000ms, 0874ms total)
T06A4 001:982 JLINK_WriteReg(R4, 0x00000000)  returns 0x00 (0000ms, 0874ms total)
T06A4 001:982 JLINK_WriteReg(R5, 0x00000000)  returns 0x00 (0000ms, 0874ms total)
T06A4 001:982 JLINK_WriteReg(R6, 0x00000000)  returns 0x00 (0000ms, 0874ms total)
T06A4 001:982 JLINK_WriteReg(R7, 0x00000000)  returns 0x00 (0000ms, 0874ms total)
T06A4 001:982 JLINK_WriteReg(R8, 0x00000000)  returns 0x00 (0000ms, 0874ms total)
T06A4 001:982 JLINK_WriteReg(R9, 0x20000104)  returns 0x00 (0000ms, 0874ms total)
T06A4 001:982 JLINK_WriteReg(R10, 0x00000000)  returns 0x00 (0000ms, 0874ms total)
T06A4 001:982 JLINK_WriteReg(R11, 0x00000000)  returns 0x00 (0000ms, 0874ms total)
T06A4 001:983 JLINK_WriteReg(R12, 0x00000000)  returns 0x00 (0000ms, 0875ms total)
T06A4 001:983 JLINK_WriteReg(R13 (SP), 0x20004000)  returns 0x00 (0000ms, 0875ms total)
T06A4 001:983 JLINK_WriteReg(R14, 0x20000001)  returns 0x00 (0000ms, 0875ms total)
T06A4 001:983 JLINK_WriteReg(R15 (PC), 0x20000080)  returns 0x00 (0000ms, 0875ms total)
T06A4 001:983 JLINK_WriteReg(XPSR, 0x01000000)  returns 0x00 (0000ms, 0875ms total)
T06A4 001:983 JLINK_WriteReg(MSP, 0x20004000)  returns 0x00 (0000ms, 0875ms total)
T06A4 001:983 JLINK_WriteReg(PSP, 0x20004000)  returns 0x00 (0000ms, 0875ms total)
T06A4 001:983 JLINK_WriteReg(CFBP, 0x00000000)  returns 0x00 (0000ms, 0875ms total)
T06A4 001:983 JLINK_SetBPEx(Addr = 0x20000000, Type = 0xFFFFFFF2)  returns 0x0000000F (0000ms, 0875ms total)
